DIgSILENT PowerFactory,22000400,2000
7,07A,00D
1,All calculations:b:tnow,,,s,0.000000,0.000000,0.000000,0,0,1,1,P
2,AC Voltage Source:m:u:bus1:A,,,p.u.,0.000010000000,0.00002002716,0.000000,-99890,99998,1,1,P
3,AC Voltage Source:m:u:bus1:B,,,p.u.,0.000010000000,-0.005657971,0.000000,-98698,99998,1,1,P
4,AC Voltage Source:m:u:bus1:C,,,p.u.,0.000010000000,-0.007247596,0.000000,-98672,99998,1,1,P
5,AC Voltage Source:m:i:bus1:A,,,p.u.,0.00010000000,-8.894279,0.000000,77903,99998,1,1,P
6,AC Voltage Source:m:i:bus1:B,,,p.u.,0.00010000000,-8.883405,0.000000,77687,99998,1,1,P
7,AC Voltage Source:m:i:bus1:C,,,p.u.,0.00010000000,-8.885982,0.000000,77707,99998,1,1,P
50
1
1000.000000,1000
01/12/2022,00:12:25.000000
01/12/2022,00:12:25.000000
ASCII
1.000000
0000000001,0000000000,000000,099998,-49434,-49275,098943,079504,088190
0000000002,0000001000,000000,095104,-20225,-73590,099998,081864,084774
0000000003,0000002000,000000,080880,011016,-90607,099969,084908,081760
0000000004,0000003000,000000,058744,041217,-98672,098860,088334,079443
0000000005,0000004000,000000,030893,067462,-97066,096786,091809,078042
0000000006,0000005000,000000,-00002,087115,-85824,093939,094990,077707
0000000007,0000006000,000000,-30904,098381,-66188,090608,097575,078454
0000000008,0000007000,000000,-58769,099998,-39940,087110,099299,080227
0000000009,0000008000,000000,-80873,091885,-09723,083794,099998,082845
0000000010,0000009000,000000,-95055,074838,021506,080982,099604,086050
0000000011,0000010000,000000,-99890,050505,050673,078955,098153,089529
0000000012,0000011000,000000,-94976,021323,074941,077903,095793,092940
0000000013,0000012000,000000,-80771,-09876,091936,077932,092754,095950
0000000014,0000013000,000000,-58669,-40040,099998,079039,089333,098265
0000000015,0000014000,000000,-30836,-66218,098342,081114,085864,099659
0000000016,0000015000,000000,000000,-85423,086712,083979,082718,099940
0000000017,0000016000,000000,030799,-96872,067361,087287,080125,099225
0000000018,0000017000,000000,058545,-98524,041268,090766,078406,097464
0000000019,0000018000,000000,080325,-90144,011107,094057,077745,094835
0000000020,0000019000,000000,094656,-73379,-19988,096871,078110,091655
0000000021,0000020000,000000,099736,-49318,-49130,098915,079528,088194
0000000022,0000021000,000000,094448,-20090,-73069,099921,081912,084804
0000000023,0000022000,000000,080442,010982,-90135,099910,084931,081796
0000000024,0000023000,000000,058679,041145,-98536,098847,088333,079457
0000000025,0000024000,000000,030858,067337,-96907,096774,091802,078061
0000000026,0000025000,000000,000016,086994,-85722,093935,094980,077722
0000000027,0000026000,000000,-30827,098190,-66074,090607,097557,078473
0000000028,0000027000,000000,-58653,099830,-39888,087116,099280,080241
0000000029,0000028000,000000,-80738,091753,-09726,083804,099981,082852
0000000030,0000029000,000000,-94920,074751,021458,080995,099590,086052
0000000031,0000030000,000000,-99811,050486,050613,078964,098147,089526
0000000032,0000031000,000000,-94932,021335,074885,077909,095792,092936
0000000033,0000032000,000000,-80760,-09849,091897,077935,092756,095946
0000000034,0000033000,000000,-58683,-40013,099985,079039,089335,098263
0000000035,0000034000,000000,-30862,-66206,098357,081111,085866,099659
0000000036,0000035000,000000,-00020,-85862,087171,083951,082688,099998
0000000037,0000036000,000000,030823,-97058,067524,087279,080111,099247
0000000038,0000037000,000000,058649,-98698,041338,090770,078388,097479
0000000039,0000038000,000000,080734,-90622,011176,094082,077687,094867
0000000040,0000039000,000000,094916,-73619,-20009,096891,078078,091668
0000000041,0000040000,000000,099807,-49355,-49164,098922,079521,088193
0000000042,0000041000,000000,094928,-20204,-73436,099976,081876,084784
0000000043,0000042000,000000,080756,010980,-90448,099950,084913,081774
0000000044,0000043000,000000,058679,041145,-98536,098847,088333,079457
0000000045,0000044000,000000,030858,067337,-96907,096774,091802,078061
0000000046,0000045000,000000,000016,086994,-85722,093935,094980,077722
0000000047,0000046000,000000,-30827,098190,-66074,090607,097557,078473
0000000048,0000047000,000000,-58653,099830,-39888,087116,099280,080241
0000000049,0000048000,000000,-80738,091753,-09726,083804,099981,082852
0000000050,0000049000,000000,-94920,074751,021458,080995,099590,086052
0000000051,0000050000,000000,-99811,050486,050613,078964,098147,089526
0000000052,0000051000,000000,-94932,021335,074885,077909,095792,092936
0000000053,0000052000,000000,-80760,-09849,091897,077935,092756,095946
0000000054,0000053000,000000,-58683,-40013,099985,079039,089335,098263
0000000055,0000054000,000000,-30862,-66206,098357,081111,085866,099659
0000000056,0000055000,000000,-00020,-85862,087171,083951,082688,099998
0000000057,0000056000,000000,030823,-97058,067524,087279,080111,099247
0000000058,0000057000,000000,058649,-98698,041338,090770,078388,097479
0000000059,0000058000,000000,080734,-90622,011176,094082,077687,094867
0000000060,0000059000,000000,094916,-73619,-20009,096891,078078,091668
0000000061,0000060000,000000,099807,-49355,-49164,098922,079521,088193
0000000062,0000061000,000000,094928,-20204,-73436,099976,081876,084784
0000000063,0000062000,000000,080756,010980,-90448,099950,084913,081774
0000000064,0000063000,000000,058679,041145,-98536,098847,088333,079457
0000000065,0000064000,000000,030858,067337,-96907,096774,091802,078061
0000000066,0000065000,000000,000016,086994,-85722,093935,094980,077722
0000000067,0000066000,000000,-30827,098190,-66074,090607,097557,078473
0000000068,0000067000,000000,-58653,099830,-39888,087116,099280,080241
0000000069,0000068000,000000,-80738,091753,-09726,083804,099981,082852
0000000070,0000069000,000000,-94920,074751,021458,080995,099590,086052
0000000071,0000070000,000000,-99811,050486,050613,078964,098147,089526
0000000072,0000071000,000000,-94932,021335,074885,077909,095792,092936
0000000073,0000072000,000000,-80760,-09849,091897,077935,092756,095946
0000000074,0000073000,000000,-58683,-40013,099985,079039,089335,098263
0000000075,0000074000,000000,-30862,-66206,098357,081111,085866,099659
0000000076,0000075000,000000,-00020,-85862,087171,083951,082688,099998
0000000077,0000076000,000000,030823,-97058,067524,087279,080111,099247
0000000078,0000077000,000000,058649,-98698,041338,090770,078388,097479
0000000079,0000078000,000000,080734,-90622,011176,094082,077687,094867
0000000080,0000079000,000000,094916,-73619,-20009,096891,078078,091668
0000000081,0000080000,000000,099807,-49355,-49164,098922,079521,088193
0000000082,0000081000,000000,094928,-20204,-73436,099976,081876,084784
0000000083,0000082000,000000,080756,010980,-90448,099950,084913,081774
0000000084,0000083000,000000,058679,041145,-98536,098847,088333,079457
0000000085,0000084000,000000,030858,067337,-96907,096774,091802,078061
0000000086,0000085000,000000,000016,086994,-85722,093935,094980,077722
0000000087,0000086000,000000,-30827,098190,-66074,090607,097557,078473
0000000088,0000087000,000000,-58653,099830,-39888,087116,099280,080241
0000000089,0000088000,000000,-80738,091753,-09726,083804,099981,082852
0000000090,0000089000,000000,-94920,074751,021458,080995,099590,086052
0000000091,0000090000,000000,-99811,050486,050613,078964,098147,089526
0000000092,0000091000,000000,-94932,021335,074885,077909,095792,092936
0000000093,0000092000,000000,-80760,-09849,091897,077935,092756,095946
0000000094,0000093000,000000,-58683,-40013,099985,079039,089335,098263
0000000095,0000094000,000000,-30862,-66206,098357,081111,085866,099659
0000000096,0000095000,000000,-00020,-85862,087171,083951,082688,099998
0000000097,0000096000,000000,030823,-97058,067524,087279,080111,099247
0000000098,0000097000,000000,058649,-98698,041338,090770,078388,097479
0000000099,0000098000,000000,080734,-90622,011176,094082,077687,094867
0000000100,0000099000,000000,094916,-73619,-20009,096891,078078,091668
0000000101,0000100000,000000,099807,-49355,-49164,098922,079521,088193
0000000102,0000101000,000000,094928,-20204,-73436,099976,081876,084784
0000000103,0000102000,000000,080756,010980,-90448,099950,084913,081774
0000000104,0000103000,000000,058679,041145,-98536,098847,088333,079457
0000000105,0000104000,000000,030858,067337,-96907,096774,091802,078061
0000000106,0000105000,000000,000016,086994,-85722,093935,094980,077722
0000000107,0000106000,000000,-30827,098190,-66074,090607,097557,078473
0000000108,0000107000,000000,-58653,099830,-39888,087116,099280,080241
0000000109,0000108000,000000,-80738,091753,-09726,083804,099981,082852
0000000110,0000109000,000000,-94920,074751,021458,080995,099590,086052
0000000111,0000110000,000000,-99811,050486,050613,078964,098147,089526
0000000112,0000111000,000000,-94932,021335,074885,077909,095792,092936
0000000113,0000112000,000000,-80760,-09849,091897,077935,092756,095946
0000000114,0000113000,000000,-58683,-40013,099985,079039,089335,098263
0000000115,0000114000,000000,-30862,-66206,098357,081111,085866,099659
0000000116,0000115000,000000,-00020,-85862,087171,083951,082688,099998
0000000117,0000116000,000000,030823,-97058,067524,087279,080111,099247
0000000118,0000117000,000000,058649,-98698,041338,090770,078388,097479
0000000119,0000118000,000000,080734,-90622,011176,094082,077687,094867
0000000120,0000119000,000000,094916,-73619,-20009,096891,078078,091668
0000000121,0000120000,000000,099807,-49355,-49164,098922,079521,088193
0000000122,0000121000,000000,094928,-20204,-73436,099976,081876,084784
0000000123,0000122000,000000,080756,010980,-90448,099950,084913,081774
0000000124,0000123000,000000,058679,041145,-98536,098847,088333,079457
0000000125,0000124000,000000,030858,067337,-96907,096774,091802,078061
0000000126,0000125000,000000,000016,086994,-85722,093935,094980,077722
0000000127,0000126000,000000,-30827,098190,-66074,090607,097557,078473
0000000128,0000127000,000000,-58653,099830,-39888,087116,099280,080241
0000000129,0000128000,000000,-80738,091753,-09726,083804,099981,082852
0000000130,0000129000,000000,-94920,074751,021458,080995,099590,086052
0000000131,0000130000,000000,-99811,050486,050613,078964,098147,089526
0000000132,0000131000,000000,-94932,021335,074885,077909,095792,092936
0000000133,0000132000,000000,-80760,-09849,091897,077935,092756,095946
0000000134,0000133000,000000,-58683,-40013,099985,079039,089335,098263
0000000135,0000134000,000000,-30862,-66206,098357,081111,085866,099659
0000000136,0000135000,000000,-00020,-85862,087171,083951,082688,099998
0000000137,0000136000,000000,030823,-97058,067524,087279,080111,099247
0000000138,0000137000,000000,058649,-98698,041338,090770,078388,097479
0000000139,0000138000,000000,080734,-90622,011176,094082,077687,094867
0000000140,0000139000,000000,094916,-73619,-20009,096891,078078,091668
0000000141,0000140000,000000,099807,-49355,-49164,098922,079521,088193
0000000142,0000141000,000000,094928,-20204,-73436,099976,081876,084784
0000000143,0000142000,000000,080756,010980,-90448,099950,084913,081774
0000000144,0000143000,000000,058679,041145,-98536,098847,088333,079457
0000000145,0000144000,000000,030858,067337,-96907,096774,091802,078061
0000000146,0000145000,000000,000016,086994,-85722,093935,094980,077722
0000000147,0000146000,000000,-30827,098190,-66074,090607,097557,078473
0000000148,0000147000,000000,-58653,099830,-39888,087116,099280,080241
0000000149,0000148000,000000,-80738,091753,-09726,083804,099981,082852
0000000150,0000149000,000000,-94920,074751,021458,080995,099590,086052
0000000151,0000150000,000000,-99811,050486,050613,078964,098147,089526
0000000152,0000151000,000000,-94932,021335,074885,077909,095792,092936
0000000153,0000152000,000000,-80760,-09849,091897,077935,092756,095946
0000000154,0000153000,000000,-58683,-40013,099985,079039,089335,098263
0000000155,0000154000,000000,-30862,-66206,098357,081111,085866,099659
0000000156,0000155000,000000,-00020,-85862,087171,083951,082688,099998
0000000157,0000156000,000000,030823,-97058,067524,087279,080111,099247
0000000158,0000157000,000000,058649,-98698,041338,090770,078388,097479
0000000159,0000158000,000000,080734,-90622,011176,094082,077687,094867
0000000160,0000159000,000000,094916,-73619,-20009,096891,078078,091668
0000000161,0000160000,000000,099807,-49355,-49164,098922,079521,088193
0000000162,0000161000,000000,094928,-20204,-73436,099976,081876,084784
0000000163,0000162000,000000,080756,010980,-90448,099950,084913,081774
0000000164,0000163000,000000,058679,041145,-98536,098847,088333,079457
0000000165,0000164000,000000,030858,067337,-96907,096774,091802,078061
0000000166,0000165000,000000,000016,086994,-85722,093935,094980,077722
0000000167,0000166000,000000,-30827,098190,-66074,090607,097557,078473
0000000168,0000167000,000000,-58653,099830,-39888,087116,099280,080241
0000000169,0000168000,000000,-80738,091753,-09726,083804,099981,082852
0000000170,0000169000,000000,-94920,074751,021458,080995,099590,086052
0000000171,0000170000,000000,-99811,050486,050613,078964,098147,089526
0000000172,0000171000,000000,-94932,021335,074885,077909,095792,092936
0000000173,0000172000,000000,-80760,-09849,091897,077935,092756,095946
0000000174,0000173000,000000,-58683,-40013,099985,079039,089335,098263
0000000175,0000174000,000000,-30862,-66206,098357,081111,085866,099659
0000000176,0000175000,000000,-00020,-85862,087171,083951,082688,099998
0000000177,0000176000,000000,030823,-97058,067524,087279,080111,099247
0000000178,0000177000,000000,058649,-98698,041338,090770,078388,097479
0000000179,0000178000,000000,080734,-90622,011176,094082,077687,094867
0000000180,0000179000,000000,094916,-73619,-20009,096891,078078,091668
0000000181,0000180000,000000,099807,-49355,-49164,098922,079521,088193
0000000182,0000181000,000000,094928,-20204,-73436,099976,081876,084784
0000000183,0000182000,000000,080756,010980,-90448,099950,084913,081774
0000000184,0000183000,000000,058679,041145,-98536,098847,088333,079457
0000000185,0000184000,000000,030858,067337,-96907,096774,091802,078061
0000000186,0000185000,000000,000016,086994,-85722,093935,094980,077722
0000000187,0000186000,000000,-30827,098190,-66074,090607,097557,078473
0000000188,0000187000,000000,-58653,099830,-39888,087116,099280,080241
0000000189,0000188000,000000,-80738,091753,-09726,083804,099981,082852
0000000190,0000189000,000000,-94920,074751,021458,080995,099590,086052
0000000191,0000190000,000000,-99811,050486,050613,078964,098147,089526
0000000192,0000191000,000000,-94932,021335,074885,077909,095792,092936
0000000193,0000192000,000000,-80760,-09849,091897,077935,092756,095946
0000000194,0000193000,000000,-58683,-40013,099985,079039,089335,098263
0000000195,0000194000,000000,-30862,-66206,098357,081111,085866,099659
0000000196,0000195000,000000,-00020,-85862,087171,083951,082688,099998
0000000197,0000196000,000000,030823,-97058,067524,087279,080111,099247
0000000198,0000197000,000000,058649,-98698,041338,090770,078388,097479
0000000199,0000198000,000000,080734,-90622,011176,094082,077687,094867
0000000200,0000199000,000000,094916,-73619,-20009,096891,078078,091668
0000000201,0000200000,000000,099807,-49355,-49164,098922,079521,088193
0000000202,0000201000,000000,094928,-20204,-73436,099976,081876,084784
0000000203,0000202000,000000,080756,010980,-90448,099950,084913,081774
0000000204,0000203000,000000,058679,041145,-98536,098847,088333,079457
0000000205,0000204000,000000,030858,067337,-96907,096774,091802,078061
0000000206,0000205000,000000,000016,086994,-85722,093935,094980,077722
0000000207,0000206000,000000,-30827,098190,-66074,090607,097557,078473
0000000208,0000207000,000000,-58653,099830,-39888,087116,099280,080241
0000000209,0000208000,000000,-80738,091753,-09726,083804,099981,082852
0000000210,0000209000,000000,-94920,074751,021458,080995,099590,086052
0000000211,0000210000,000000,-99811,050486,050613,078964,098147,089526
0000000212,0000211000,000000,-94932,021335,074885,077909,095792,092936
0000000213,0000212000,000000,-80760,-09849,091897,077935,092756,095946
0000000214,0000213000,000000,-58683,-40013,099985,079039,089335,098263
0000000215,0000214000,000000,-30862,-66206,098357,081111,085866,099659
0000000216,0000215000,000000,-00020,-85862,087171,083951,082688,099998
0000000217,0000216000,000000,030823,-97058,067524,087279,080111,099247
0000000218,0000217000,000000,058649,-98698,041338,090770,078388,097479
0000000219,0000218000,000000,080734,-90622,011176,094082,077687,094867
0000000220,0000219000,000000,094916,-73619,-20009,096891,078078,091668
0000000221,0000220000,000000,099807,-49355,-49164,098922,079521,088193
0000000222,0000221000,000000,094928,-20204,-73436,099976,081876,084784
0000000223,0000222000,000000,080756,010980,-90448,099950,084913,081774
0000000224,0000223000,000000,058679,041145,-98536,098847,088333,079457
0000000225,0000224000,000000,030858,067337,-96907,096774,091802,078061
0000000226,0000225000,000000,000016,086994,-85722,093935,094980,077722
0000000227,0000226000,000000,-30827,098190,-66074,090607,097557,078473
0000000228,0000227000,000000,-58653,099830,-39888,087116,099280,080241
0000000229,0000228000,000000,-80738,091753,-09726,083804,099981,082852
0000000230,0000229000,000000,-94920,074751,021458,080995,099590,086052
0000000231,0000230000,000000,-99811,050486,050613,078964,098147,089526
0000000232,0000231000,000000,-94932,021335,074885,077909,095792,092936
0000000233,0000232000,000000,-80760,-09849,091897,077935,092756,095946
0000000234,0000233000,000000,-58683,-40013,099985,079039,089335,098263
0000000235,0000234000,000000,-30862,-66206,098357,081111,085866,099659
0000000236,0000235000,000000,-00020,-85862,087171,083951,082688,099998
0000000237,0000236000,000000,030823,-97058,067524,087279,080111,099247
0000000238,0000237000,000000,058649,-98698,041338,090770,078388,097479
0000000239,0000238000,000000,080734,-90622,011176,094082,077687,094867
0000000240,0000239000,000000,094916,-73619,-20009,096891,078078,091668
0000000241,0000240000,000000,099807,-49355,-49164,098922,079521,088193
0000000242,0000241000,000000,094928,-20204,-73436,099976,081876,084784
0000000243,0000242000,000000,080756,010980,-90448,099950,084913,081774
0000000244,0000243000,000000,058679,041145,-98536,098847,088333,079457
0000000245,0000244000,000000,030858,067337,-96907,096774,091802,078061
0000000246,0000245000,000000,000016,086994,-85722,093935,094980,077722
0000000247,0000246000,000000,-30827,098190,-66074,090607,097557,078473
0000000248,0000247000,000000,-58653,099830,-39888,087116,099280,080241
0000000249,0000248000,000000,-80738,091753,-09726,083804,099981,082852
0000000250,0000249000,000000,-94920,074751,021458,080995,099590,086052
0000000251,0000250000,000000,-99811,050486,050613,078964,098147,089526
0000000252,0000251000,000000,-94932,021335,074885,077909,095792,092936
0000000253,0000252000,000000,-80760,-09849,091897,077935,092756,095946
0000000254,0000253000,000000,-58683,-40013,099985,079039,089335,098263
0000000255,0000254000,000000,-30862,-66206,098357,081111,085866,099659
0000000256,0000255000,000000,-00020,-85862,087171,083951,082688,099998
0000000257,0000256000,000000,030823,-97058,067524,087279,080111,099247
0000000258,0000257000,000000,058649,-98698,041338,090770,078388,097479
0000000259,0000258000,000000,080734,-90622,011176,094082,077687,094867
0000000260,0000259000,000000,094916,-73619,-20009,096891,078078,091668
0000000261,0000260000,000000,099807,-49355,-49164,098922,079521,088193
0000000262,0000261000,000000,094928,-20204,-73436,099976,081876,084784
0000000263,0000262000,000000,080756,010980,-90448,099950,084913,081774
0000000264,0000263000,000000,058679,041145,-98536,098847,088333,079457
0000000265,0000264000,000000,030858,067337,-96907,096774,091802,078061
0000000266,0000265000,000000,000016,086994,-85722,093935,094980,077722
0000000267,0000266000,000000,-30827,098190,-66074,090607,097557,078473
0000000268,0000267000,000000,-58653,099830,-39888,087116,099280,080241
0000000269,0000268000,000000,-80738,091753,-09726,083804,099981,082852
0000000270,0000269000,000000,-94920,074751,021458,080995,099590,086052
0000000271,0000270000,000000,-99811,050486,050613,078964,098147,089526
